
T0E38 000:609 SEGGER J-Link V4.90 Log File (0001ms, 0271ms total)
T0E38 000:609 DLL Compiled: Jul 28 2014 10:35:20 (0001ms, 0271ms total)
T0E38 000:609 Logging started @ 2017-07-27 18:18 (0001ms, 0271ms total)
T0E38 000:610 JLINK_SetWarnOutHandler(...) (0000ms, 0271ms total)
T0E38 000:610 JLINK_OpenEx(...)
Firmware: J-Link ARM-OB STM32 compiled Aug 22 2012 19:52:04
Hardware: V7.00
S/N: 20170514
Feature(s): RDI,FlashDL,FlashBP,JFlash,GDBFull  returns O.K. (0268ms, 0539ms total)
T0E38 000:878 JLINK_SetErrorOutHandler(...) (0000ms, 0539ms total)
T0E38 000:878 JLINK_ExecCommand("ProjectFile = "C:\Users\b1101\Documents\GitHub\fenglibai\JLinkSettings.ini"", ...)  returns 0x00 (0001ms, 0540ms total)
T0E38 000:897 JLINK_ExecCommand("Device = STM32F407VE", ...)Device "STM32F407VE" selected (512 KB flash, 128 KB RAM).  returns 0x00 (0025ms, 0565ms total)
T0E38 000:922 JLINK_ExecCommand("DisableConnectionTimeout", ...)  returns 0x01 (0000ms, 0565ms total)
T0E38 000:922 JLINK_GetHardwareVersion()  returns 0x11170 (0000ms, 0565ms total)
T0E38 000:922 JLINK_GetDLLVersion()  returns 49000 (0000ms, 0565ms total)
T0E38 000:922 JLINK_GetFirmwareString(...) (0000ms, 0565ms total)
T0E38 000:991 JLINK_GetDLLVersion()  returns 49000 (0000ms, 0565ms total)
T0E38 000:991 JLINK_GetCompileDateTime() (0000ms, 0565ms total)
T0E38 001:002 JLINK_GetFirmwareString(...) (0000ms, 0565ms total)
T0E38 001:010 JLINK_GetHardwareVersion()  returns 0x11170 (0000ms, 0565ms total)
T0E38 001:046 JLINK_TIF_Select(JLINKARM_TIF_SWD)  returns 0x00 (0001ms, 0566ms total)
T0E38 001:047 JLINK_SetSpeed(1000) (0000ms, 0566ms total)
T0E38 001:047 JLINK_GetId() >0x108 TIF>Found SWD-DP with ID 0x2BA01477 >0x0D TIF> >0x28 TIF> >0x0D TIF> >0x28 TIF> >0x0D TIF> >0x21 TIF> >0x0D TIF> >0x28 TIF> >0x0D TIF> >0x28 TIF> >0x0D TIF> >0x28 TIF> >0x0D TIF> >0x21 TIF> >0x0D TIF> >0x21 TIF> >0x0D TIF> >0x28 TIF> >0x0D TIF> >0x21 TIF> >0x0D TIF> >0x21 TIF> >0x0D TIF> >0x28 TIF> >0x0D TIF> >0x21 TIF> >0x0D TIF> >0x21 TIF> >0x108 TIF>Found SWD-DP with ID 0x2BA01477 >0x0D TIF> >0x21 TIF> >0x0D TIF> >0x28 TIF> >0x0D TIF> >0x28 TIF> >0x0D TIF> >0x21 TIF>
 >0x0D TIF> >0x28 TIF> >0x0D TIF> >0x21 TIF> >0x0D TIF> >0x21 TIF> >0x0D TIF> >0x21 TIF> >0x0D TIF> >0x21 TIF> >0x0D TIF> >0x28 TIF> >0x0D TIF> >0x28 TIF> >0x0D TIF> >0x21 TIF> >0x0D TIF> >0x28 TIF> >0x0D TIF> >0x28 TIF> >0x0D TIF> >0x28 TIF> >0x0D TIF> >0x21 TIF> >0x0D TIF> >0x21 TIF> >0x0D TIF> >0x28 TIF> >0x0D TIF> >0x21 TIF> >0x0D TIF> >0x21 TIF>Found Cortex-M4 r0p1, Little endian. -- CPU_WriteMem(4 bytes @ 0xE0002000) -- CPU_ReadMem(4 bytes @ 0xE000EDF0) -- CPU_ReadMem(4 bytes @ 0xE0002000)
FPUnit: 6 code (BP) slots and 2 literal slots -- CPU_ReadMem(4 bytes @ 0xE000EDFC) -- CPU_ReadMem(4 bytes @ 0xE0001000) -- CPU_WriteMem(4 bytes @ 0xE0001000) -- CPU_ReadMem(4 bytes @ 0xE00FF010)TPIU fitted. -- CPU_ReadMem(4 bytes @ 0xE00FF014)ETM fitted. -- CPU_ReadMem(4 bytes @ 0xE00FF018) >0x0D TIF> >0x21 TIF>  returns 0x2BA01477 (0098ms, 0664ms total)
T0E38 001:145 JLINK_GetDLLVersion()  returns 49000 (0000ms, 0664ms total)
T0E38 001:146 JLINK_CORE_GetFound()  returns 0xE0000FF (0000ms, 0665ms total)
T0E38 001:155 JLINK_ReadMem (0xE00FF000, 0x0020 Bytes, ...) -- CPU is running -- CPU_ReadMem(32 bytes @ 0xE00FF000) - Data: 03 F0 F0 FF 03 20 F0 FF 03 30 F0 FF 03 10 F0 FF ...  returns 0x00 (0002ms, 0667ms total)
T0E38 001:157 JLINK_ReadMem (0xE000EFF0, 0x0010 Bytes, ...) -- CPU is running -- CPU_ReadMem(16 bytes @ 0xE000EFF0) - Data: 0D 00 00 00 E0 00 00 00 05 00 00 00 B1 00 00 00  returns 0x00 (0002ms, 0669ms total)
T0E38 001:159 JLINK_ReadMem (0xE000EFD0, 0x0020 Bytes, ...) -- CPU is running -- CPU_ReadMem(32 bytes @ 0xE000EFD0) - Data: 04 00 00 00 00 00 00 00 00 00 00 00 00 00 00 00 ...  returns 0x00 (0002ms, 0671ms total)
T0E38 001:161 JLINK_ReadMem (0xE0001FF0, 0x0010 Bytes, ...) -- CPU is running -- CPU_ReadMem(16 bytes @ 0xE0001FF0) - Data: 0D 00 00 00 E0 00 00 00 05 00 00 00 B1 00 00 00  returns 0x00 (0001ms, 0672ms total)
T0E38 001:162 JLINK_ReadMem (0xE0001FD0, 0x0020 Bytes, ...) -- CPU is running -- CPU_ReadMem(32 bytes @ 0xE0001FD0) - Data: 04 00 00 00 00 00 00 00 00 00 00 00 00 00 00 00 ...  returns 0x00 (0002ms, 0674ms total)
T0E38 001:164 JLINK_ReadMem (0xE0002FF0, 0x0010 Bytes, ...) -- CPU is running -- CPU_ReadMem(16 bytes @ 0xE0002FF0) - Data: 0D 00 00 00 E0 00 00 00 05 00 00 00 B1 00 00 00  returns 0x00 (0002ms, 0676ms total)
T0E38 001:166 JLINK_ReadMem (0xE0002FD0, 0x0020 Bytes, ...) -- CPU is running -- CPU_ReadMem(32 bytes @ 0xE0002FD0) - Data: 04 00 00 00 00 00 00 00 00 00 00 00 00 00 00 00 ...  returns 0x00 (0002ms, 0678ms total)
T0E38 001:168 JLINK_ReadMem (0xE0000FF0, 0x0010 Bytes, ...) -- CPU is running -- CPU_ReadMem(16 bytes @ 0xE0000FF0) - Data: 0D 00 00 00 E0 00 00 00 05 00 00 00 B1 00 00 00  returns 0x00 (0002ms, 0680ms total)
T0E38 001:170 JLINK_ReadMem (0xE0000FD0, 0x0020 Bytes, ...) -- CPU is running -- CPU_ReadMem(32 bytes @ 0xE0000FD0) - Data: 04 00 00 00 00 00 00 00 00 00 00 00 00 00 00 00 ...  returns 0x00 (0002ms, 0682ms total)
T0E38 001:172 JLINK_ReadMem (0xE0040FF0, 0x0010 Bytes, ...) -- CPU is running -- CPU_ReadMem(16 bytes @ 0xE0040FF0) - Data: 0D 00 00 00 90 00 00 00 05 00 00 00 B1 00 00 00  returns 0x00 (0001ms, 0683ms total)
T0E38 001:173 JLINK_ReadMem (0xE0040FD0, 0x0020 Bytes, ...) -- CPU is running -- CPU_ReadMem(32 bytes @ 0xE0040FD0) - Data: 04 00 00 00 00 00 00 00 00 00 00 00 00 00 00 00 ...  returns 0x00 (0002ms, 0685ms total)
T0E38 001:175 JLINK_ReadMem (0xE0041FF0, 0x0010 Bytes, ...) -- CPU is running -- CPU_ReadMem(16 bytes @ 0xE0041FF0) - Data: 0D 00 00 00 90 00 00 00 05 00 00 00 B1 00 00 00  returns 0x00 (0002ms, 0687ms total)
T0E38 001:177 JLINK_ReadMem (0xE0041FD0, 0x0020 Bytes, ...) -- CPU is running -- CPU_ReadMem(32 bytes @ 0xE0041FD0) - Data: 04 00 00 00 00 00 00 00 00 00 00 00 00 00 00 00 ...  returns 0x00 (0002ms, 0689ms total)
T0E38 001:179 JLINK_ReadMemU32(0xE000EF40, 0x0001 Items, ...) -- CPU is running -- CPU_ReadMem(4 bytes @ 0xE000EF40) - Data: 21 00 11 10  returns 0x01 (0001ms, 0690ms total)
T0E38 001:180 JLINK_ReadMemU32(0xE000EF44, 0x0001 Items, ...) -- CPU is running -- CPU_ReadMem(4 bytes @ 0xE000EF44) - Data: 11 00 00 11  returns 0x01 (0001ms, 0691ms total)
T0E38 001:182 JLINK_ReadMemU32(0xE000ED00, 0x0001 Items, ...) -- CPU is running -- CPU_ReadMem(4 bytes @ 0xE000ED00) - Data: 41 C2 0F 41  returns 0x01 (0001ms, 0692ms total)
T0E38 001:183 JLINK_SetResetType(JLINKARM_RESET_TYPE_NORMAL)  returns JLINKARM_RESET_TYPE_NORMAL (0000ms, 0692ms total)
T0E38 001:183 JLINK_Reset() -- CPU is running -- CPU_WriteMem(4 bytes @ 0xE000EDF0) -- CPU is running -- CPU_WriteMem(4 bytes @ 0xE000EDFC) >0x35 TIF> -- CPU is running -- CPU_WriteMem(4 bytes @ 0xE000ED0C) -- CPU is running -- CPU_ReadMem(4 bytes @ 0xE000EDF0) -- CPU is running -- CPU_ReadMem(4 bytes @ 0xE000EDF0) -- CPU is running -- CPU_WriteMem(4 bytes @ 0xE000EDF0) -- CPU is running -- CPU_WriteMem(4 bytes @ 0xE000EDFC) -- CPU is running -- CPU_ReadMem(4 bytes @ 0xE000EDF0)
 -- CPU_WriteMem(4 bytes @ 0xE0002000) -- CPU_ReadMem(4 bytes @ 0xE000EDFC) -- CPU_ReadMem(4 bytes @ 0xE0001000) (0031ms, 0723ms total)
T0E38 001:214 JLINK_Halt()  returns 0x00 (0000ms, 0723ms total)
T0E38 001:214 JLINK_IsHalted()  returns TRUE (0000ms, 0723ms total)
T0E38 001:214 JLINK_ReadMemU32(0xE000EDF0, 0x0001 Items, ...) -- CPU_ReadMem(4 bytes @ 0xE000EDF0) - Data: 03 00 03 00  returns 0x01 (0001ms, 0724ms total)
T0E38 001:215 JLINK_WriteU32(0xE000EDF0, 0xA05F0003) -- CPU_WriteMem(4 bytes @ 0xE000EDF0)  returns 0x00 (0002ms, 0726ms total)
T0E38 001:217 JLINK_WriteU32(0xE000EDFC, 0x01000000) -- CPU_WriteMem(4 bytes @ 0xE000EDFC)  returns 0x00 (0001ms, 0727ms total)
T0E38 001:249 JLINK_GetHWStatus(...)  returns 0x00 (0000ms, 0727ms total)
T0E38 001:278 JLINK_GetNumBPUnits(Type = 0xFFFFFF00)  returns 0x06 (0000ms, 0727ms total)
T0E38 001:278 JLINK_GetNumBPUnits(Type = 0xF0)  returns 0x2000 (0000ms, 0727ms total)
T0E38 001:278 JLINK_GetNumWPUnits()  returns 0x04 (0000ms, 0727ms total)
T0E38 001:299 JLINK_GetSpeed()  returns 0x3E8 (0000ms, 0727ms total)
T0E38 001:312 JLINK_ReadMemU32(0xE000E004, 0x0001 Items, ...) -- CPU_ReadMem(4 bytes @ 0xE000E004) - Data: 02 00 00 00  returns 0x01 (0002ms, 0729ms total)
T0E38 001:314 JLINK_ReadMemU32(0xE000E004, 0x0001 Items, ...) -- CPU_ReadMem(4 bytes @ 0xE000E004) - Data: 02 00 00 00  returns 0x01 (0001ms, 0730ms total)
T0E38 001:315 JLINK_WriteMem(0xE0001000, 0x001C Bytes, ...) - Data: 01 00 00 00 00 00 00 00 00 00 00 00 00 00 00 00 ... -- CPU_WriteMem(28 bytes @ 0xE0001000)  returns 0x1C (0002ms, 0732ms total)
T0E38 001:317 JLINK_ReadMem (0xE0001000, 0x001C Bytes, ...) -- CPU_ReadMem(28 bytes @ 0xE0001000) - Data: 01 00 00 40 00 00 00 00 00 00 00 00 00 00 00 00 ...  returns 0x00 (0003ms, 0735ms total)
T0E38 001:320 JLINK_Halt()  returns 0x00 (0000ms, 0735ms total)
T0E38 001:320 JLINK_IsHalted()  returns TRUE (0000ms, 0735ms total)
T0E38 001:330 JLINK_WriteMem(0x20000000, 0x0180 Bytes, ...) - Data: 00 BE 0A E0 0D 78 2D 06 68 40 08 24 40 00 00 D3 ... -- CPU_WriteMem(384 bytes @ 0x20000000)  returns 0x180 (0013ms, 0748ms total)
T0E38 001:343 JLINK_WriteReg(R0, 0x08000000)  returns 0x00 (0000ms, 0748ms total)
T0E38 001:343 JLINK_WriteReg(R1, 0x00B71B00)  returns 0x00 (0000ms, 0748ms total)
T0E38 001:343 JLINK_WriteReg(R2, 0x00000001)  returns 0x00 (0000ms, 0748ms total)
T0E38 001:343 JLINK_WriteReg(R3, 0x00000000)  returns 0x00 (0000ms, 0748ms total)
T0E38 001:343 JLINK_WriteReg(R4, 0x00000000)  returns 0x00 (0000ms, 0748ms total)
T0E38 001:343 JLINK_WriteReg(R5, 0x00000000)  returns 0x00 (0000ms, 0748ms total)
T0E38 001:343 JLINK_WriteReg(R6, 0x00000000)  returns 0x00 (0001ms, 0749ms total)
T0E38 001:344 JLINK_WriteReg(R7, 0x00000000)  returns 0x00 (0000ms, 0749ms total)
T0E38 001:344 JLINK_WriteReg(R8, 0x00000000)  returns 0x00 (0000ms, 0749ms total)
T0E38 001:344 JLINK_WriteReg(R9, 0x2000017C)  returns 0x00 (0000ms, 0749ms total)
T0E38 001:344 JLINK_WriteReg(R10, 0x00000000)  returns 0x00 (0000ms, 0749ms total)
T0E38 001:344 JLINK_WriteReg(R11, 0x00000000)  returns 0x00 (0000ms, 0749ms total)
T0E38 001:344 JLINK_WriteReg(R12, 0x00000000)  returns 0x00 (0000ms, 0749ms total)
T0E38 001:344 JLINK_WriteReg(R13 (SP), 0x20001000)  returns 0x00 (0000ms, 0749ms total)
T0E38 001:344 JLINK_WriteReg(R14, 0x20000001)  returns 0x00 (0000ms, 0749ms total)
T0E38 001:344 JLINK_WriteReg(R15 (PC), 0x20000054)  returns 0x00 (0000ms, 0749ms total)
T0E38 001:344 JLINK_WriteReg(XPSR, 0x01000000)  returns 0x00 (0000ms, 0749ms total)
T0E38 001:344 JLINK_WriteReg(MSP, 0x20001000)  returns 0x00 (0000ms, 0749ms total)
T0E38 001:344 JLINK_WriteReg(PSP, 0x20001000)  returns 0x00 (0000ms, 0749ms total)
T0E38 001:344 JLINK_WriteReg(CFBP, 0x00000000)  returns 0x00 (0000ms, 0749ms total)
T0E38 001:344 JLINK_SetBPEx(Addr = 0x20000000, Type = 0xFFFFFFF2) -- CPU_ReadMem(2 bytes @ 0x20000000)  returns 0x00000001 (0001ms, 0750ms total)
T0E38 001:345 JLINK_Go() -- CPU_WriteMem(2 bytes @ 0x20000000) -- CPU_WriteMem(4 bytes @ 0xE0002008) -- CPU_WriteMem(4 bytes @ 0xE000200C) -- CPU_WriteMem(4 bytes @ 0xE0002010) -- CPU_WriteMem(4 bytes @ 0xE0002014) -- CPU_WriteMem(4 bytes @ 0xE0002018) -- CPU_WriteMem(4 bytes @ 0xE000201C) -- CPU_WriteMem(4 bytes @ 0xE0001004) (0015ms, 0765ms total)
T0E38 001:360 JLINK_IsHalted() -- CPU_ReadMem(2 bytes @ 0x20000000)  returns TRUE (0010ms, 0775ms total)
T0E38 001:370 JLINK_ReadReg(R15 (PC))  returns 0x20000000 (0000ms, 0765ms total)
T0E38 001:370 JLINK_ClrBPEx(BPHandle = 0x00000001)  returns 0x00 (0000ms, 0765ms total)
T0E38 001:370 JLINK_ReadReg(R0)  returns 0x00000000 (0000ms, 0765ms total)
T0E38 001:371 JLINK_WriteReg(R0, 0x08000000)  returns 0x00 (0000ms, 0765ms total)
T0E38 001:371 JLINK_WriteReg(R1, 0x00004000)  returns 0x00 (0000ms, 0765ms total)
T0E38 001:371 JLINK_WriteReg(R2, 0x000000FF)  returns 0x00 (0000ms, 0765ms total)
T0E38 001:371 JLINK_WriteReg(R3, 0x00000000)  returns 0x00 (0000ms, 0765ms total)
T0E38 001:371 JLINK_WriteReg(R4, 0x00000000)  returns 0x00 (0000ms, 0765ms total)
T0E38 001:371 JLINK_WriteReg(R5, 0x00000000)  returns 0x00 (0000ms, 0765ms total)
T0E38 001:371 JLINK_WriteReg(R6, 0x00000000)  returns 0x00 (0000ms, 0765ms total)
T0E38 001:371 JLINK_WriteReg(R7, 0x00000000)  returns 0x00 (0000ms, 0765ms total)
T0E38 001:371 JLINK_WriteReg(R8, 0x00000000)  returns 0x00 (0000ms, 0765ms total)
T0E38 001:371 JLINK_WriteReg(R9, 0x2000017C)  returns 0x00 (0000ms, 0765ms total)
T0E38 001:371 JLINK_WriteReg(R10, 0x00000000)  returns 0x00 (0000ms, 0765ms total)
T0E38 001:371 JLINK_WriteReg(R11, 0x00000000)  returns 0x00 (0000ms, 0765ms total)
T0E38 001:371 JLINK_WriteReg(R12, 0x00000000)  returns 0x00 (0000ms, 0765ms total)
T0E38 001:371 JLINK_WriteReg(R13 (SP), 0x20001000)  returns 0x00 (0000ms, 0765ms total)
T0E38 001:371 JLINK_WriteReg(R14, 0x20000001)  returns 0x00 (0000ms, 0765ms total)
T0E38 001:371 JLINK_WriteReg(R15 (PC), 0x20000020)  returns 0x00 (0000ms, 0765ms total)
T0E38 001:371 JLINK_WriteReg(XPSR, 0x01000000)  returns 0x00 (0000ms, 0765ms total)
T0E38 001:371 JLINK_WriteReg(MSP, 0x20001000)  returns 0x00 (0000ms, 0765ms total)
T0E38 001:371 JLINK_WriteReg(PSP, 0x20001000)  returns 0x00 (0000ms, 0765ms total)
T0E38 001:371 JLINK_WriteReg(CFBP, 0x00000000)  returns 0x00 (0000ms, 0765ms total)
T0E38 001:371 JLINK_SetBPEx(Addr = 0x20000000, Type = 0xFFFFFFF2)  returns 0x00000002 (0000ms, 0765ms total)
T0E38 001:371 JLINK_Go() (0004ms, 0769ms total)
T0E38 001:376 JLINK_IsHalted() -- CPU_ReadMem(2 bytes @ 0x20000000)  returns TRUE (0009ms, 0779ms total)
T0E38 001:385 JLINK_ReadReg(R15 (PC))  returns 0x20000000 (0000ms, 0770ms total)
T0E38 001:385 JLINK_ClrBPEx(BPHandle = 0x00000002)  returns 0x00 (0000ms, 0770ms total)
T0E38 001:385 JLINK_ReadReg(R0)  returns 0x00000001 (0000ms, 0770ms total)
T0E38 001:385 JLINK_WriteReg(R0, 0x08000000)  returns 0x00 (0000ms, 0770ms total)
T0E38 001:385 JLINK_WriteReg(R1, 0x00004000)  returns 0x00 (0000ms, 0770ms total)
T0E38 001:385 JLINK_WriteReg(R2, 0x000000FF)  returns 0x00 (0000ms, 0770ms total)
T0E38 001:385 JLINK_WriteReg(R3, 0x00000000)  returns 0x00 (0000ms, 0770ms total)
T0E38 001:385 JLINK_WriteReg(R4, 0x00000000)  returns 0x00 (0000ms, 0770ms total)
T0E38 001:385 JLINK_WriteReg(R5, 0x00000000)  returns 0x00 (0000ms, 0770ms total)
T0E38 001:385 JLINK_WriteReg(R6, 0x00000000)  returns 0x00 (0000ms, 0770ms total)
T0E38 001:385 JLINK_WriteReg(R7, 0x00000000)  returns 0x00 (0000ms, 0770ms total)
T0E38 001:385 JLINK_WriteReg(R8, 0x00000000)  returns 0x00 (0000ms, 0770ms total)
T0E38 001:385 JLINK_WriteReg(R9, 0x2000017C)  returns 0x00 (0000ms, 0770ms total)
T0E38 001:385 JLINK_WriteReg(R10, 0x00000000)  returns 0x00 (0000ms, 0770ms total)
T0E38 001:385 JLINK_WriteReg(R11, 0x00000000)  returns 0x00 (0001ms, 0771ms total)
T0E38 001:386 JLINK_WriteReg(R12, 0x00000000)  returns 0x00 (0000ms, 0771ms total)
T0E38 001:386 JLINK_WriteReg(R13 (SP), 0x20001000)  returns 0x00 (0000ms, 0771ms total)
T0E38 001:386 JLINK_WriteReg(R14, 0x20000001)  returns 0x00 (0000ms, 0771ms total)
T0E38 001:386 JLINK_WriteReg(R15 (PC), 0x200000BC)  returns 0x00 (0000ms, 0771ms total)
T0E38 001:386 JLINK_WriteReg(XPSR, 0x01000000)  returns 0x00 (0000ms, 0771ms total)
T0E38 001:386 JLINK_WriteReg(MSP, 0x20001000)  returns 0x00 (0000ms, 0771ms total)
T0E38 001:386 JLINK_WriteReg(PSP, 0x20001000)  returns 0x00 (0000ms, 0771ms total)
T0E38 001:386 JLINK_WriteReg(CFBP, 0x00000000)  returns 0x00 (0000ms, 0771ms total)
T0E38 001:386 JLINK_SetBPEx(Addr = 0x20000000, Type = 0xFFFFFFF2)  returns 0x00000003 (0000ms, 0771ms total)
T0E38 001:386 JLINK_Go() (0003ms, 0774ms total)
T0E38 001:389 JLINK_IsHalted()  returns FALSE (0003ms, 0777ms total)
T0E38 001:600 JLINK_IsHalted()  returns FALSE (0001ms, 0775ms total)
T0E38 001:626 JLINK_IsHalted()  returns FALSE (0000ms, 0774ms total)
T0E38 001:628 JLINK_IsHalted()  returns FALSE (0000ms, 0774ms total)
T0E38 001:630 JLINK_IsHalted()  returns FALSE (0000ms, 0774ms total)
T0E38 001:632 JLINK_IsHalted()  returns FALSE (0000ms, 0774ms total)
T0E38 001:637 JLINK_IsHalted()  returns FALSE (0000ms, 0774ms total)
T0E38 001:639 JLINK_IsHalted()  returns FALSE (0000ms, 0774ms total)
T0E38 001:641 JLINK_IsHalted()  returns FALSE (0000ms, 0774ms total)
T0E38 001:643 JLINK_IsHalted()  returns FALSE (0000ms, 0774ms total)
T0E38 001:645 JLINK_IsHalted()  returns FALSE (0000ms, 0774ms total)
T0E38 001:647 JLINK_IsHalted()  returns FALSE (0000ms, 0774ms total)
T0E38 001:654 JLINK_IsHalted()  returns FALSE (0000ms, 0774ms total)
T0E38 001:656 JLINK_IsHalted()  returns FALSE (0000ms, 0774ms total)
T0E38 001:658 JLINK_IsHalted()  returns FALSE (0000ms, 0774ms total)
T0E38 001:660 JLINK_IsHalted()  returns FALSE (0000ms, 0774ms total)
T0E38 001:662 JLINK_IsHalted()  returns FALSE (0000ms, 0774ms total)
T0E38 001:668 JLINK_IsHalted()  returns FALSE (0001ms, 0775ms total)
T0E38 001:672 JLINK_IsHalted()  returns FALSE (0001ms, 0775ms total)
T0E38 001:675 JLINK_IsHalted()  returns FALSE (0001ms, 0775ms total)
T0E38 001:678 JLINK_IsHalted()  returns FALSE (0001ms, 0775ms total)
T0E38 001:681 JLINK_IsHalted()  returns FALSE (0000ms, 0774ms total)
T0E38 001:852 JLINK_IsHalted() -- CPU_ReadMem(2 bytes @ 0x20000000)  returns TRUE (0009ms, 0783ms total)
T0E38 001:861 JLINK_ReadReg(R15 (PC))  returns 0x20000000 (0000ms, 0774ms total)
T0E38 001:861 JLINK_ClrBPEx(BPHandle = 0x00000003)  returns 0x00 (0000ms, 0774ms total)
T0E38 001:861 JLINK_ReadReg(R0)  returns 0x00000000 (0000ms, 0774ms total)
T0E38 001:862 JLINK_WriteReg(R0, 0x08004000)  returns 0x00 (0000ms, 0774ms total)
T0E38 001:862 JLINK_WriteReg(R1, 0x00004000)  returns 0x00 (0000ms, 0774ms total)
T0E38 001:862 JLINK_WriteReg(R2, 0x000000FF)  returns 0x00 (0000ms, 0774ms total)
T0E38 001:862 JLINK_WriteReg(R3, 0x00000000)  returns 0x00 (0000ms, 0774ms total)
T0E38 001:862 JLINK_WriteReg(R4, 0x00000000)  returns 0x00 (0000ms, 0774ms total)
T0E38 001:862 JLINK_WriteReg(R5, 0x00000000)  returns 0x00 (0000ms, 0774ms total)
T0E38 001:862 JLINK_WriteReg(R6, 0x00000000)  returns 0x00 (0000ms, 0774ms total)
T0E38 001:862 JLINK_WriteReg(R7, 0x00000000)  returns 0x00 (0000ms, 0774ms total)
T0E38 001:862 JLINK_WriteReg(R8, 0x00000000)  returns 0x00 (0000ms, 0774ms total)
T0E38 001:862 JLINK_WriteReg(R9, 0x2000017C)  returns 0x00 (0000ms, 0774ms total)
T0E38 001:862 JLINK_WriteReg(R10, 0x00000000)  returns 0x00 (0000ms, 0774ms total)
T0E38 001:862 JLINK_WriteReg(R11, 0x00000000)  returns 0x00 (0000ms, 0774ms total)
T0E38 001:862 JLINK_WriteReg(R12, 0x00000000)  returns 0x00 (0000ms, 0774ms total)
T0E38 001:862 JLINK_WriteReg(R13 (SP), 0x20001000)  returns 0x00 (0000ms, 0774ms total)
T0E38 001:862 JLINK_WriteReg(R14, 0x20000001)  returns 0x00 (0000ms, 0774ms total)
T0E38 001:862 JLINK_WriteReg(R15 (PC), 0x20000020)  returns 0x00 (0000ms, 0774ms total)
T0E38 001:862 JLINK_WriteReg(XPSR, 0x01000000)  returns 0x00 (0000ms, 0774ms total)
T0E38 001:862 JLINK_WriteReg(MSP, 0x20001000)  returns 0x00 (0000ms, 0774ms total)
T0E38 001:862 JLINK_WriteReg(PSP, 0x20001000)  returns 0x00 (0000ms, 0774ms total)
T0E38 001:862 JLINK_WriteReg(CFBP, 0x00000000)  returns 0x00 (0000ms, 0774ms total)
T0E38 001:862 JLINK_SetBPEx(Addr = 0x20000000, Type = 0xFFFFFFF2)  returns 0x00000004 (0000ms, 0774ms total)
T0E38 001:862 JLINK_Go() (0004ms, 0778ms total)
T0E38 001:867 JLINK_IsHalted() -- CPU_ReadMem(2 bytes @ 0x20000000)  returns TRUE (0009ms, 0788ms total)
T0E38 001:876 JLINK_ReadReg(R15 (PC))  returns 0x20000000 (0000ms, 0779ms total)
T0E38 001:876 JLINK_ClrBPEx(BPHandle = 0x00000004)  returns 0x00 (0000ms, 0779ms total)
T0E38 001:876 JLINK_ReadReg(R0)  returns 0x00000001 (0000ms, 0779ms total)
T0E38 001:876 JLINK_WriteReg(R0, 0x08004000)  returns 0x00 (0000ms, 0779ms total)
T0E38 001:876 JLINK_WriteReg(R1, 0x00004000)  returns 0x00 (0000ms, 0779ms total)
T0E38 001:876 JLINK_WriteReg(R2, 0x000000FF)  returns 0x00 (0000ms, 0779ms total)
T0E38 001:876 JLINK_WriteReg(R3, 0x00000000)  returns 0x00 (0000ms, 0779ms total)
T0E38 001:876 JLINK_WriteReg(R4, 0x00000000)  returns 0x00 (0000ms, 0779ms total)
T0E38 001:877 JLINK_WriteReg(R5, 0x00000000)  returns 0x00 (0000ms, 0780ms total)
T0E38 001:877 JLINK_WriteReg(R6, 0x00000000)  returns 0x00 (0000ms, 0780ms total)
T0E38 001:877 JLINK_WriteReg(R7, 0x00000000)  returns 0x00 (0000ms, 0780ms total)
T0E38 001:877 JLINK_WriteReg(R8, 0x00000000)  returns 0x00 (0000ms, 0780ms total)
T0E38 001:877 JLINK_WriteReg(R9, 0x2000017C)  returns 0x00 (0000ms, 0780ms total)
T0E38 001:877 JLINK_WriteReg(R10, 0x00000000)  returns 0x00 (0000ms, 0780ms total)
T0E38 001:877 JLINK_WriteReg(R11, 0x00000000)  returns 0x00 (0000ms, 0780ms total)
T0E38 001:877 JLINK_WriteReg(R12, 0x00000000)  returns 0x00 (0000ms, 0780ms total)
T0E38 001:877 JLINK_WriteReg(R13 (SP), 0x20001000)  returns 0x00 (0000ms, 0780ms total)
T0E38 001:877 JLINK_WriteReg(R14, 0x20000001)  returns 0x00 (0000ms, 0780ms total)
T0E38 001:877 JLINK_WriteReg(R15 (PC), 0x200000BC)  returns 0x00 (0000ms, 0780ms total)
T0E38 001:877 JLINK_WriteReg(XPSR, 0x01000000)  returns 0x00 (0000ms, 0780ms total)
T0E38 001:877 JLINK_WriteReg(MSP, 0x20001000)  returns 0x00 (0000ms, 0780ms total)
T0E38 001:877 JLINK_WriteReg(PSP, 0x20001000)  returns 0x00 (0000ms, 0780ms total)
T0E38 001:877 JLINK_WriteReg(CFBP, 0x00000000)  returns 0x00 (0000ms, 0780ms total)
T0E38 001:877 JLINK_SetBPEx(Addr = 0x20000000, Type = 0xFFFFFFF2)  returns 0x00000005 (0000ms, 0780ms total)
T0E38 001:877 JLINK_Go() (0004ms, 0784ms total)
T0E38 001:881 JLINK_IsHalted()  returns FALSE (0001ms, 0785ms total)
T0E38 002:057 JLINK_IsHalted()  returns FALSE (0000ms, 0784ms total)
T0E38 002:066 JLINK_IsHalted()  returns FALSE (0001ms, 0785ms total)
T0E38 002:069 JLINK_IsHalted()  returns FALSE (0001ms, 0785ms total)
T0E38 002:075 JLINK_IsHalted()  returns FALSE (0001ms, 0785ms total)
T0E38 002:078 JLINK_IsHalted()  returns FALSE (0001ms, 0785ms total)
T0E38 002:081 JLINK_IsHalted()  returns FALSE (0001ms, 0785ms total)
T0E38 002:084 JLINK_IsHalted()  returns FALSE (0001ms, 0785ms total)
T0E38 002:092 JLINK_IsHalted()  returns FALSE (0001ms, 0785ms total)
T0E38 002:095 JLINK_IsHalted()  returns FALSE (0001ms, 0785ms total)
T0E38 002:097 JLINK_IsHalted()  returns FALSE (0001ms, 0785ms total)
T0E38 002:100 JLINK_IsHalted()  returns FALSE (0001ms, 0785ms total)
T0E38 002:102 JLINK_IsHalted()  returns FALSE (0001ms, 0785ms total)
T0E38 002:111 JLINK_IsHalted()  returns FALSE (0001ms, 0785ms total)
T0E38 002:114 JLINK_IsHalted()  returns FALSE (0001ms, 0785ms total)
T0E38 002:117 JLINK_IsHalted()  returns FALSE (0001ms, 0785ms total)
T0E38 002:120 JLINK_IsHalted()  returns FALSE (0001ms, 0785ms total)
T0E38 002:144 JLINK_IsHalted()  returns FALSE (0000ms, 0784ms total)
T0E38 002:146 JLINK_IsHalted()  returns FALSE (0001ms, 0785ms total)
T0E38 002:149 JLINK_IsHalted()  returns FALSE (0001ms, 0785ms total)
T0E38 002:160 JLINK_IsHalted()  returns FALSE (0001ms, 0785ms total)
T0E38 002:163 JLINK_IsHalted()  returns FALSE (0001ms, 0785ms total)
T0E38 002:167 JLINK_IsHalted()  returns FALSE (0001ms, 0785ms total)
T0E38 002:170 JLINK_IsHalted()  returns FALSE (0001ms, 0785ms total)
T0E38 002:173 JLINK_IsHalted()  returns FALSE (0001ms, 0785ms total)
T0E38 002:176 JLINK_IsHalted()  returns FALSE (0001ms, 0785ms total)
T0E38 002:179 JLINK_IsHalted()  returns FALSE (0001ms, 0785ms total)
T0E38 002:182 JLINK_IsHalted()  returns FALSE (0001ms, 0785ms total)
T0E38 002:188 JLINK_IsHalted()  returns FALSE (0001ms, 0785ms total)
T0E38 002:191 JLINK_IsHalted()  returns FALSE (0001ms, 0785ms total)
T0E38 002:194 JLINK_IsHalted()  returns FALSE (0000ms, 0784ms total)
T0E38 002:218 JLINK_IsHalted()  returns FALSE (0001ms, 0785ms total)
T0E38 002:221 JLINK_IsHalted()  returns FALSE (0001ms, 0785ms total)
T0E38 002:224 JLINK_IsHalted()  returns FALSE (0001ms, 0785ms total)
T0E38 002:227 JLINK_IsHalted()  returns FALSE (0001ms, 0785ms total)
T0E38 002:319 JLINK_IsHalted() -- CPU_ReadMem(2 bytes @ 0x20000000)  returns TRUE (0010ms, 0794ms total)
T0E38 002:329 JLINK_ReadReg(R15 (PC))  returns 0x20000000 (0000ms, 0784ms total)
T0E38 002:329 JLINK_ClrBPEx(BPHandle = 0x00000005)  returns 0x00 (0000ms, 0784ms total)
T0E38 002:329 JLINK_ReadReg(R0)  returns 0x00000000 (0000ms, 0784ms total)
T0E38 002:329 JLINK_WriteReg(R0, 0x00000001)  returns 0x00 (0000ms, 0784ms total)
T0E38 002:329 JLINK_WriteReg(R1, 0x00004000)  returns 0x00 (0000ms, 0784ms total)
T0E38 002:329 JLINK_WriteReg(R2, 0x000000FF)  returns 0x00 (0000ms, 0784ms total)
T0E38 002:329 JLINK_WriteReg(R3, 0x00000000)  returns 0x00 (0000ms, 0784ms total)
T0E38 002:329 JLINK_WriteReg(R4, 0x00000000)  returns 0x00 (0000ms, 0784ms total)
T0E38 002:329 JLINK_WriteReg(R5, 0x00000000)  returns 0x00 (0000ms, 0784ms total)
T0E38 002:329 JLINK_WriteReg(R6, 0x00000000)  returns 0x00 (0000ms, 0784ms total)
T0E38 002:329 JLINK_WriteReg(R7, 0x00000000)  returns 0x00 (0000ms, 0784ms total)
T0E38 002:329 JLINK_WriteReg(R8, 0x00000000)  returns 0x00 (0000ms, 0784ms total)
T0E38 002:329 JLINK_WriteReg(R9, 0x2000017C)  returns 0x00 (0000ms, 0784ms total)
T0E38 002:329 JLINK_WriteReg(R10, 0x00000000)  returns 0x00 (0000ms, 0784ms total)
T0E38 002:329 JLINK_WriteReg(R11, 0x00000000)  returns 0x00 (0000ms, 0784ms total)
T0E38 002:329 JLINK_WriteReg(R12, 0x00000000)  returns 0x00 (0000ms, 0784ms total)
T0E38 002:329 JLINK_WriteReg(R13 (SP), 0x20001000)  returns 0x00 (0000ms, 0784ms total)
T0E38 002:329 JLINK_WriteReg(R14, 0x20000001)  returns 0x00 (0000ms, 0784ms total)
T0E38 002:329 JLINK_WriteReg(R15 (PC), 0x20000082)  returns 0x00 (0000ms, 0784ms total)
T0E38 002:329 JLINK_WriteReg(XPSR, 0x01000000)  returns 0x00 (0000ms, 0784ms total)
T0E38 002:329 JLINK_WriteReg(MSP, 0x20001000)  returns 0x00 (0000ms, 0784ms total)
T0E38 002:329 JLINK_WriteReg(PSP, 0x20001000)  returns 0x00 (0000ms, 0784ms total)
T0E38 002:329 JLINK_WriteReg(CFBP, 0x00000000)  returns 0x00 (0000ms, 0784ms total)
T0E38 002:329 JLINK_SetBPEx(Addr = 0x20000000, Type = 0xFFFFFFF2)  returns 0x00000006 (0000ms, 0784ms total)
T0E38 002:329 JLINK_Go() (0005ms, 0789ms total)
T0E38 002:334 JLINK_IsHalted() -- CPU_ReadMem(2 bytes @ 0x20000000)  returns TRUE (0009ms, 0798ms total)
T0E38 002:343 JLINK_ReadReg(R15 (PC))  returns 0x20000000 (0000ms, 0789ms total)
T0E38 002:343 JLINK_ClrBPEx(BPHandle = 0x00000006)  returns 0x00 (0000ms, 0789ms total)
T0E38 002:343 JLINK_ReadReg(R0)  returns 0x00000000 (0000ms, 0789ms total)
T0E38 002:412 JLINK_WriteMem(0x20000000, 0x0180 Bytes, ...) - Data: 00 BE 0A E0 0D 78 2D 06 68 40 08 24 40 00 00 D3 ... -- CPU_WriteMem(384 bytes @ 0x20000000)  returns 0x180 (0014ms, 0803ms total)
T0E38 002:426 JLINK_WriteReg(R0, 0x08000000)  returns 0x00 (0000ms, 0803ms total)
T0E38 002:426 JLINK_WriteReg(R1, 0x00B71B00)  returns 0x00 (0000ms, 0803ms total)
T0E38 002:426 JLINK_WriteReg(R2, 0x00000002)  returns 0x00 (0000ms, 0803ms total)
T0E38 002:426 JLINK_WriteReg(R3, 0x00000000)  returns 0x00 (0000ms, 0803ms total)
T0E38 002:426 JLINK_WriteReg(R4, 0x00000000)  returns 0x00 (0000ms, 0803ms total)
T0E38 002:426 JLINK_WriteReg(R5, 0x00000000)  returns 0x00 (0000ms, 0803ms total)
T0E38 002:426 JLINK_WriteReg(R6, 0x00000000)  returns 0x00 (0000ms, 0803ms total)
T0E38 002:426 JLINK_WriteReg(R7, 0x00000000)  returns 0x00 (0000ms, 0803ms total)
T0E38 002:426 JLINK_WriteReg(R8, 0x00000000)  returns 0x00 (0000ms, 0803ms total)
T0E38 002:426 JLINK_WriteReg(R9, 0x2000017C)  returns 0x00 (0000ms, 0803ms total)
T0E38 002:426 JLINK_WriteReg(R10, 0x00000000)  returns 0x00 (0000ms, 0803ms total)
T0E38 002:426 JLINK_WriteReg(R11, 0x00000000)  returns 0x00 (0000ms, 0803ms total)
T0E38 002:426 JLINK_WriteReg(R12, 0x00000000)  returns 0x00 (0000ms, 0803ms total)
T0E38 002:426 JLINK_WriteReg(R13 (SP), 0x20001000)  returns 0x00 (0000ms, 0803ms total)
T0E38 002:426 JLINK_WriteReg(R14, 0x20000001)  returns 0x00 (0000ms, 0803ms total)
T0E38 002:426 JLINK_WriteReg(R15 (PC), 0x20000054)  returns 0x00 (0000ms, 0803ms total)
T0E38 002:426 JLINK_WriteReg(XPSR, 0x01000000)  returns 0x00 (0000ms, 0803ms total)
T0E38 002:426 JLINK_WriteReg(MSP, 0x20001000)  returns 0x00 (0000ms, 0803ms total)
T0E38 002:426 JLINK_WriteReg(PSP, 0x20001000)  returns 0x00 (0000ms, 0803ms total)
T0E38 002:426 JLINK_WriteReg(CFBP, 0x00000000)  returns 0x00 (0000ms, 0803ms total)
T0E38 002:426 JLINK_SetBPEx(Addr = 0x20000000, Type = 0xFFFFFFF2) -- CPU_ReadMem(2 bytes @ 0x20000000)  returns 0x00000007 (0002ms, 0805ms total)
T0E38 002:428 JLINK_Go() -- CPU_WriteMem(2 bytes @ 0x20000000) (0005ms, 0810ms total)
T0E38 002:433 JLINK_IsHalted() -- CPU_ReadMem(2 bytes @ 0x20000000)  returns TRUE (0010ms, 0820ms total)
T0E38 002:443 JLINK_ReadReg(R15 (PC))  returns 0x20000000 (0000ms, 0810ms total)
T0E38 002:443 JLINK_ClrBPEx(BPHandle = 0x00000007)  returns 0x00 (0000ms, 0810ms total)
T0E38 002:443 JLINK_ReadReg(R0)  returns 0x00000000 (0000ms, 0810ms total)
T0E38 002:444 JLINK_WriteMem(0x20000180, 0x0400 Bytes, ...) - Data: 20 15 00 20 69 02 00 08 71 02 00 08 73 02 00 08 ... -- CPU_WriteMem(1024 bytes @ 0x20000180)  returns 0x400 (0033ms, 0843ms total)
T0E38 002:477 JLINK_WriteReg(R0, 0x08000000)  returns 0x00 (0000ms, 0843ms total)
T0E38 002:477 JLINK_WriteReg(R1, 0x00000400)  returns 0x00 (0000ms, 0843ms total)
T0E38 002:477 JLINK_WriteReg(R2, 0x20000180)  returns 0x00 (0000ms, 0843ms total)
T0E38 002:477 JLINK_WriteReg(R3, 0x00000000)  returns 0x00 (0000ms, 0843ms total)
T0E38 002:477 JLINK_WriteReg(R4, 0x00000000)  returns 0x00 (0000ms, 0843ms total)
T0E38 002:477 JLINK_WriteReg(R5, 0x00000000)  returns 0x00 (0000ms, 0843ms total)
T0E38 002:477 JLINK_WriteReg(R6, 0x00000000)  returns 0x00 (0000ms, 0843ms total)
T0E38 002:477 JLINK_WriteReg(R7, 0x00000000)  returns 0x00 (0000ms, 0843ms total)
T0E38 002:477 JLINK_WriteReg(R8, 0x00000000)  returns 0x00 (0000ms, 0843ms total)
T0E38 002:477 JLINK_WriteReg(R9, 0x2000017C)  returns 0x00 (0000ms, 0843ms total)
T0E38 002:477 JLINK_WriteReg(R10, 0x00000000)  returns 0x00 (0000ms, 0843ms total)
T0E38 002:477 JLINK_WriteReg(R11, 0x00000000)  returns 0x00 (0001ms, 0844ms total)
T0E38 002:478 JLINK_WriteReg(R12, 0x00000000)  returns 0x00 (0000ms, 0844ms total)
T0E38 002:478 JLINK_WriteReg(R13 (SP), 0x20001000)  returns 0x00 (0000ms, 0844ms total)
T0E38 002:478 JLINK_WriteReg(R14, 0x20000001)  returns 0x00 (0000ms, 0844ms total)
T0E38 002:478 JLINK_WriteReg(R15 (PC), 0x20000108)  returns 0x00 (0000ms, 0844ms total)
T0E38 002:478 JLINK_WriteReg(XPSR, 0x01000000)  returns 0x00 (0000ms, 0844ms total)
T0E38 002:478 JLINK_WriteReg(MSP, 0x20001000)  returns 0x00 (0000ms, 0844ms total)
T0E38 002:478 JLINK_WriteReg(PSP, 0x20001000)  returns 0x00 (0000ms, 0844ms total)
T0E38 002:478 JLINK_WriteReg(CFBP, 0x00000000)  returns 0x00 (0000ms, 0844ms total)
T0E38 002:478 JLINK_SetBPEx(Addr = 0x20000000, Type = 0xFFFFFFF2)  returns 0x00000008 (0000ms, 0844ms total)
T0E38 002:478 JLINK_Go() (0004ms, 0848ms total)
T0E38 002:482 JLINK_IsHalted()  returns FALSE (0001ms, 0849ms total)
T0E38 002:625 JLINK_IsHalted() -- CPU_ReadMem(2 bytes @ 0x20000000)  returns TRUE (0008ms, 0856ms total)
T0E38 002:633 JLINK_ReadReg(R15 (PC))  returns 0x20000000 (0000ms, 0848ms total)
T0E38 002:633 JLINK_ClrBPEx(BPHandle = 0x00000008)  returns 0x00 (0000ms, 0848ms total)
T0E38 002:633 JLINK_ReadReg(R0)  returns 0x00000000 (0000ms, 0848ms total)
T0E38 002:634 JLINK_WriteMem(0x20000180, 0x0400 Bytes, ...) - Data: 64 1C 42 54 9F ED 39 0A 28 EE 80 0A BD EE C0 0A ... -- CPU_WriteMem(1024 bytes @ 0x20000180)  returns 0x400 (0033ms, 0881ms total)
T0E38 002:667 JLINK_WriteReg(R0, 0x08000400)  returns 0x00 (0000ms, 0881ms total)
T0E38 002:667 JLINK_WriteReg(R1, 0x00000400)  returns 0x00 (0000ms, 0881ms total)
T0E38 002:667 JLINK_WriteReg(R2, 0x20000180)  returns 0x00 (0000ms, 0881ms total)
T0E38 002:667 JLINK_WriteReg(R3, 0x00000000)  returns 0x00 (0000ms, 0881ms total)
T0E38 002:667 JLINK_WriteReg(R4, 0x00000000)  returns 0x00 (0000ms, 0881ms total)
T0E38 002:667 JLINK_WriteReg(R5, 0x00000000)  returns 0x00 (0000ms, 0881ms total)
T0E38 002:667 JLINK_WriteReg(R6, 0x00000000)  returns 0x00 (0000ms, 0881ms total)
T0E38 002:667 JLINK_WriteReg(R7, 0x00000000)  returns 0x00 (0000ms, 0881ms total)
T0E38 002:667 JLINK_WriteReg(R8, 0x00000000)  returns 0x00 (0000ms, 0881ms total)
T0E38 002:667 JLINK_WriteReg(R9, 0x2000017C)  returns 0x00 (0000ms, 0881ms total)
T0E38 002:667 JLINK_WriteReg(R10, 0x00000000)  returns 0x00 (0000ms, 0881ms total)
T0E38 002:667 JLINK_WriteReg(R11, 0x00000000)  returns 0x00 (0000ms, 0881ms total)
T0E38 002:667 JLINK_WriteReg(R12, 0x00000000)  returns 0x00 (0000ms, 0881ms total)
T0E38 002:667 JLINK_WriteReg(R13 (SP), 0x20001000)  returns 0x00 (0000ms, 0881ms total)
T0E38 002:667 JLINK_WriteReg(R14, 0x20000001)  returns 0x00 (0000ms, 0881ms total)
T0E38 002:667 JLINK_WriteReg(R15 (PC), 0x20000108)  returns 0x00 (0000ms, 0881ms total)
T0E38 002:667 JLINK_WriteReg(XPSR, 0x01000000)  returns 0x00 (0000ms, 0881ms total)
T0E38 002:667 JLINK_WriteReg(MSP, 0x20001000)  returns 0x00 (0000ms, 0881ms total)
T0E38 002:667 JLINK_WriteReg(PSP, 0x20001000)  returns 0x00 (0000ms, 0881ms total)
T0E38 002:667 JLINK_WriteReg(CFBP, 0x00000000)  returns 0x00 (0000ms, 0881ms total)
T0E38 002:667 JLINK_SetBPEx(Addr = 0x20000000, Type = 0xFFFFFFF2)  returns 0x00000009 (0000ms, 0881ms total)
T0E38 002:667 JLINK_Go() (0004ms, 0885ms total)
T0E38 002:671 JLINK_IsHalted()  returns FALSE (0001ms, 0886ms total)
T0E38 002:802 JLINK_IsHalted() -- CPU_ReadMem(2 bytes @ 0x20000000)  returns TRUE (0008ms, 0893ms total)
T0E38 002:810 JLINK_ReadReg(R15 (PC))  returns 0x20000000 (0000ms, 0885ms total)
T0E38 002:810 JLINK_ClrBPEx(BPHandle = 0x00000009)  returns 0x00 (0000ms, 0885ms total)
T0E38 002:810 JLINK_ReadReg(R0)  returns 0x00000000 (0000ms, 0885ms total)
T0E38 002:811 JLINK_WriteMem(0x20000180, 0x0400 Bytes, ...) - Data: 02 D1 20 79 58 49 08 70 A0 78 21 28 02 D1 00 20 ... -- CPU_WriteMem(1024 bytes @ 0x20000180)  returns 0x400 (0033ms, 0918ms total)
T0E38 002:844 JLINK_WriteReg(R0, 0x08000800)  returns 0x00 (0000ms, 0918ms total)
T0E38 002:844 JLINK_WriteReg(R1, 0x00000400)  returns 0x00 (0000ms, 0918ms total)
T0E38 002:844 JLINK_WriteReg(R2, 0x20000180)  returns 0x00 (0000ms, 0918ms total)
T0E38 002:844 JLINK_WriteReg(R3, 0x00000000)  returns 0x00 (0000ms, 0918ms total)
T0E38 002:844 JLINK_WriteReg(R4, 0x00000000)  returns 0x00 (0000ms, 0918ms total)
T0E38 002:844 JLINK_WriteReg(R5, 0x00000000)  returns 0x00 (0000ms, 0918ms total)
T0E38 002:844 JLINK_WriteReg(R6, 0x00000000)  returns 0x00 (0000ms, 0918ms total)
T0E38 002:844 JLINK_WriteReg(R7, 0x00000000)  returns 0x00 (0000ms, 0918ms total)
T0E38 002:844 JLINK_WriteReg(R8, 0x00000000)  returns 0x00 (0000ms, 0918ms total)
T0E38 002:844 JLINK_WriteReg(R9, 0x2000017C)  returns 0x00 (0000ms, 0918ms total)
T0E38 002:844 JLINK_WriteReg(R10, 0x00000000)  returns 0x00 (0000ms, 0918ms total)
T0E38 002:844 JLINK_WriteReg(R11, 0x00000000)  returns 0x00 (0000ms, 0918ms total)
T0E38 002:844 JLINK_WriteReg(R12, 0x00000000)  returns 0x00 (0000ms, 0918ms total)
T0E38 002:844 JLINK_WriteReg(R13 (SP), 0x20001000)  returns 0x00 (0000ms, 0918ms total)
T0E38 002:844 JLINK_WriteReg(R14, 0x20000001)  returns 0x00 (0000ms, 0918ms total)
T0E38 002:844 JLINK_WriteReg(R15 (PC), 0x20000108)  returns 0x00 (0000ms, 0918ms total)
T0E38 002:844 JLINK_WriteReg(XPSR, 0x01000000)  returns 0x00 (0000ms, 0918ms total)
T0E38 002:844 JLINK_WriteReg(MSP, 0x20001000)  returns 0x00 (0000ms, 0918ms total)
T0E38 002:844 JLINK_WriteReg(PSP, 0x20001000)  returns 0x00 (0000ms, 0918ms total)
T0E38 002:844 JLINK_WriteReg(CFBP, 0x00000000)  returns 0x00 (0000ms, 0918ms total)
T0E38 002:844 JLINK_SetBPEx(Addr = 0x20000000, Type = 0xFFFFFFF2)  returns 0x0000000A (0000ms, 0918ms total)
T0E38 002:844 JLINK_Go() (0003ms, 0921ms total)
T0E38 002:847 JLINK_IsHalted()  returns FALSE (0002ms, 0923ms total)
T0E38 002:872 JLINK_IsHalted() -- CPU_ReadMem(2 bytes @ 0x20000000)  returns TRUE (0009ms, 0930ms total)
T0E38 002:881 JLINK_ReadReg(R15 (PC))  returns 0x20000000 (0000ms, 0921ms total)
T0E38 002:881 JLINK_ClrBPEx(BPHandle = 0x0000000A)  returns 0x00 (0000ms, 0921ms total)
T0E38 002:881 JLINK_ReadReg(R0)  returns 0x00000000 (0000ms, 0921ms total)
T0E38 002:881 JLINK_WriteMem(0x20000180, 0x0400 Bytes, ...) - Data: 00 F0 BC F8 40 20 0E 49 08 80 00 F0 B7 F8 0C 48 ... -- CPU_WriteMem(1024 bytes @ 0x20000180)  returns 0x400 (0032ms, 0953ms total)
T0E38 002:913 JLINK_WriteReg(R0, 0x08000C00)  returns 0x00 (0000ms, 0953ms total)
T0E38 002:913 JLINK_WriteReg(R1, 0x00000400)  returns 0x00 (0000ms, 0953ms total)
T0E38 002:913 JLINK_WriteReg(R2, 0x20000180)  returns 0x00 (0000ms, 0953ms total)
T0E38 002:913 JLINK_WriteReg(R3, 0x00000000)  returns 0x00 (0001ms, 0954ms total)
T0E38 002:914 JLINK_WriteReg(R4, 0x00000000)  returns 0x00 (0000ms, 0954ms total)
T0E38 002:914 JLINK_WriteReg(R5, 0x00000000)  returns 0x00 (0000ms, 0954ms total)
T0E38 002:914 JLINK_WriteReg(R6, 0x00000000)  returns 0x00 (0000ms, 0954ms total)
T0E38 002:914 JLINK_WriteReg(R7, 0x00000000)  returns 0x00 (0000ms, 0954ms total)
T0E38 002:914 JLINK_WriteReg(R8, 0x00000000)  returns 0x00 (0000ms, 0954ms total)
T0E38 002:914 JLINK_WriteReg(R9, 0x2000017C)  returns 0x00 (0000ms, 0954ms total)
T0E38 002:914 JLINK_WriteReg(R10, 0x00000000)  returns 0x00 (0000ms, 0954ms total)
T0E38 002:914 JLINK_WriteReg(R11, 0x00000000)  returns 0x00 (0000ms, 0954ms total)
T0E38 002:914 JLINK_WriteReg(R12, 0x00000000)  returns 0x00 (0000ms, 0954ms total)
T0E38 002:914 JLINK_WriteReg(R13 (SP), 0x20001000)  returns 0x00 (0000ms, 0954ms total)
T0E38 002:914 JLINK_WriteReg(R14, 0x20000001)  returns 0x00 (0000ms, 0954ms total)
T0E38 002:914 JLINK_WriteReg(R15 (PC), 0x20000108)  returns 0x00 (0000ms, 0954ms total)
T0E38 002:914 JLINK_WriteReg(XPSR, 0x01000000)  returns 0x00 (0000ms, 0954ms total)
T0E38 002:914 JLINK_WriteReg(MSP, 0x20001000)  returns 0x00 (0000ms, 0954ms total)
T0E38 002:914 JLINK_WriteReg(PSP, 0x20001000)  returns 0x00 (0000ms, 0954ms total)
T0E38 002:914 JLINK_WriteReg(CFBP, 0x00000000)  returns 0x00 (0000ms, 0954ms total)
T0E38 002:914 JLINK_SetBPEx(Addr = 0x20000000, Type = 0xFFFFFFF2)  returns 0x0000000B (0000ms, 0954ms total)
T0E38 002:914 JLINK_Go() (0004ms, 0958ms total)
T0E38 002:918 JLINK_IsHalted()  returns FALSE (0001ms, 0959ms total)
T0E38 003:129 JLINK_IsHalted() -- CPU_ReadMem(2 bytes @ 0x20000000)  returns TRUE (0009ms, 0967ms total)
T0E38 003:138 JLINK_ReadReg(R15 (PC))  returns 0x20000000 (0000ms, 0958ms total)
T0E38 003:138 JLINK_ClrBPEx(BPHandle = 0x0000000B)  returns 0x00 (0000ms, 0958ms total)
T0E38 003:138 JLINK_ReadReg(R0)  returns 0x00000000 (0000ms, 0958ms total)
T0E38 003:138 JLINK_WriteMem(0x20000180, 0x0400 Bytes, ...) - Data: D1 4A D0 49 D1 48 04 F0 BB FC CF 48 D0 ED 00 0A ... -- CPU_WriteMem(1024 bytes @ 0x20000180)  returns 0x400 (0033ms, 0991ms total)
T0E38 003:171 JLINK_WriteReg(R0, 0x08001000)  returns 0x00 (0000ms, 0991ms total)
T0E38 003:171 JLINK_WriteReg(R1, 0x00000400)  returns 0x00 (0000ms, 0991ms total)
T0E38 003:171 JLINK_WriteReg(R2, 0x20000180)  returns 0x00 (0000ms, 0991ms total)
T0E38 003:171 JLINK_WriteReg(R3, 0x00000000)  returns 0x00 (0000ms, 0991ms total)
T0E38 003:171 JLINK_WriteReg(R4, 0x00000000)  returns 0x00 (0000ms, 0991ms total)
T0E38 003:171 JLINK_WriteReg(R5, 0x00000000)  returns 0x00 (0000ms, 0991ms total)
T0E38 003:171 JLINK_WriteReg(R6, 0x00000000)  returns 0x00 (0000ms, 0991ms total)
T0E38 003:171 JLINK_WriteReg(R7, 0x00000000)  returns 0x00 (0000ms, 0991ms total)
T0E38 003:171 JLINK_WriteReg(R8, 0x00000000)  returns 0x00 (0000ms, 0991ms total)
T0E38 003:171 JLINK_WriteReg(R9, 0x2000017C)  returns 0x00 (0001ms, 0992ms total)
T0E38 003:172 JLINK_WriteReg(R10, 0x00000000)  returns 0x00 (0000ms, 0992ms total)
T0E38 003:172 JLINK_WriteReg(R11, 0x00000000)  returns 0x00 (0000ms, 0992ms total)
T0E38 003:172 JLINK_WriteReg(R12, 0x00000000)  returns 0x00 (0000ms, 0992ms total)
T0E38 003:172 JLINK_WriteReg(R13 (SP), 0x20001000)  returns 0x00 (0000ms, 0992ms total)
T0E38 003:172 JLINK_WriteReg(R14, 0x20000001)  returns 0x00 (0000ms, 0992ms total)
T0E38 003:172 JLINK_WriteReg(R15 (PC), 0x20000108)  returns 0x00 (0000ms, 0992ms total)
T0E38 003:172 JLINK_WriteReg(XPSR, 0x01000000)  returns 0x00 (0000ms, 0992ms total)
T0E38 003:172 JLINK_WriteReg(MSP, 0x20001000)  returns 0x00 (0000ms, 0992ms total)
T0E38 003:172 JLINK_WriteReg(PSP, 0x20001000)  returns 0x00 (0000ms, 0992ms total)
T0E38 003:172 JLINK_WriteReg(CFBP, 0x00000000)  returns 0x00 (0000ms, 0992ms total)
T0E38 003:172 JLINK_SetBPEx(Addr = 0x20000000, Type = 0xFFFFFFF2)  returns 0x0000000C (0000ms, 0992ms total)
T0E38 003:172 JLINK_Go() (0004ms, 0996ms total)
T0E38 003:176 JLINK_IsHalted()  returns FALSE (0001ms, 0997ms total)
T0E38 003:273 JLINK_IsHalted() -- CPU_ReadMem(2 bytes @ 0x20000000)  returns TRUE (0009ms, 1005ms total)
T0E38 003:282 JLINK_ReadReg(R15 (PC))  returns 0x20000000 (0000ms, 0996ms total)
T0E38 003:282 JLINK_ClrBPEx(BPHandle = 0x0000000C)  returns 0x00 (0000ms, 0996ms total)
T0E38 003:282 JLINK_ReadReg(R0)  returns 0x00000000 (0000ms, 0996ms total)
T0E38 003:282 JLINK_WriteMem(0x20000180, 0x0400 Bytes, ...) - Data: 0A EE 20 0A 80 ED 06 0A 90 ED 04 0A D0 ED 07 0A ... -- CPU_WriteMem(1024 bytes @ 0x20000180)  returns 0x400 (0033ms, 1029ms total)
T0E38 003:315 JLINK_WriteReg(R0, 0x08001400)  returns 0x00 (0000ms, 1029ms total)
T0E38 003:315 JLINK_WriteReg(R1, 0x00000400)  returns 0x00 (0000ms, 1029ms total)
T0E38 003:315 JLINK_WriteReg(R2, 0x20000180)  returns 0x00 (0000ms, 1029ms total)
T0E38 003:315 JLINK_WriteReg(R3, 0x00000000)  returns 0x00 (0000ms, 1029ms total)
T0E38 003:315 JLINK_WriteReg(R4, 0x00000000)  returns 0x00 (0000ms, 1029ms total)
T0E38 003:315 JLINK_WriteReg(R5, 0x00000000)  returns 0x00 (0000ms, 1029ms total)
T0E38 003:315 JLINK_WriteReg(R6, 0x00000000)  returns 0x00 (0000ms, 1029ms total)
T0E38 003:315 JLINK_WriteReg(R7, 0x00000000)  returns 0x00 (0000ms, 1029ms total)
T0E38 003:315 JLINK_WriteReg(R8, 0x00000000)  returns 0x00 (0000ms, 1029ms total)
T0E38 003:315 JLINK_WriteReg(R9, 0x2000017C)  returns 0x00 (0000ms, 1029ms total)
T0E38 003:315 JLINK_WriteReg(R10, 0x00000000)  returns 0x00 (0000ms, 1029ms total)
T0E38 003:315 JLINK_WriteReg(R11, 0x00000000)  returns 0x00 (0000ms, 1029ms total)
T0E38 003:315 JLINK_WriteReg(R12, 0x00000000)  returns 0x00 (0001ms, 1030ms total)
T0E38 003:316 JLINK_WriteReg(R13 (SP), 0x20001000)  returns 0x00 (0000ms, 1030ms total)
T0E38 003:316 JLINK_WriteReg(R14, 0x20000001)  returns 0x00 (0000ms, 1030ms total)
T0E38 003:316 JLINK_WriteReg(R15 (PC), 0x20000108)  returns 0x00 (0000ms, 1030ms total)
T0E38 003:316 JLINK_WriteReg(XPSR, 0x01000000)  returns 0x00 (0000ms, 1030ms total)
T0E38 003:316 JLINK_WriteReg(MSP, 0x20001000)  returns 0x00 (0000ms, 1030ms total)
T0E38 003:316 JLINK_WriteReg(PSP, 0x20001000)  returns 0x00 (0000ms, 1030ms total)
T0E38 003:316 JLINK_WriteReg(CFBP, 0x00000000)  returns 0x00 (0000ms, 1030ms total)
T0E38 003:316 JLINK_SetBPEx(Addr = 0x20000000, Type = 0xFFFFFFF2)  returns 0x0000000D (0000ms, 1030ms total)
T0E38 003:316 JLINK_Go() (0004ms, 1034ms total)
T0E38 003:320 JLINK_IsHalted()  returns FALSE (0001ms, 1035ms total)
T0E38 003:463 JLINK_IsHalted() -- CPU_ReadMem(2 bytes @ 0x20000000)  returns TRUE (0008ms, 1042ms total)
T0E38 003:471 JLINK_ReadReg(R15 (PC))  returns 0x20000000 (0000ms, 1034ms total)
T0E38 003:471 JLINK_ClrBPEx(BPHandle = 0x0000000D)  returns 0x00 (0000ms, 1034ms total)
T0E38 003:471 JLINK_ReadReg(R0)  returns 0x00000000 (0000ms, 1034ms total)
T0E38 003:472 JLINK_WriteMem(0x20000180, 0x0400 Bytes, ...) - Data: 00 1A B0 EE 00 2A 42 EE 41 1A F0 EE 61 0A 90 ED ... -- CPU_WriteMem(1024 bytes @ 0x20000180)  returns 0x400 (0033ms, 1067ms total)
T0E38 003:505 JLINK_WriteReg(R0, 0x08001800)  returns 0x00 (0000ms, 1067ms total)
T0E38 003:505 JLINK_WriteReg(R1, 0x00000400)  returns 0x00 (0000ms, 1067ms total)
T0E38 003:505 JLINK_WriteReg(R2, 0x20000180)  returns 0x00 (0000ms, 1067ms total)
T0E38 003:505 JLINK_WriteReg(R3, 0x00000000)  returns 0x00 (0000ms, 1067ms total)
T0E38 003:505 JLINK_WriteReg(R4, 0x00000000)  returns 0x00 (0000ms, 1067ms total)
T0E38 003:505 JLINK_WriteReg(R5, 0x00000000)  returns 0x00 (0000ms, 1067ms total)
T0E38 003:505 JLINK_WriteReg(R6, 0x00000000)  returns 0x00 (0000ms, 1067ms total)
T0E38 003:505 JLINK_WriteReg(R7, 0x00000000)  returns 0x00 (0000ms, 1067ms total)
T0E38 003:505 JLINK_WriteReg(R8, 0x00000000)  returns 0x00 (0000ms, 1067ms total)
T0E38 003:505 JLINK_WriteReg(R9, 0x2000017C)  returns 0x00 (0000ms, 1067ms total)
T0E38 003:505 JLINK_WriteReg(R10, 0x00000000)  returns 0x00 (0000ms, 1067ms total)
T0E38 003:505 JLINK_WriteReg(R11, 0x00000000)  returns 0x00 (0000ms, 1067ms total)
T0E38 003:505 JLINK_WriteReg(R12, 0x00000000)  returns 0x00 (0000ms, 1067ms total)
T0E38 003:505 JLINK_WriteReg(R13 (SP), 0x20001000)  returns 0x00 (0000ms, 1067ms total)
T0E38 003:505 JLINK_WriteReg(R14, 0x20000001)  returns 0x00 (0000ms, 1067ms total)
T0E38 003:505 JLINK_WriteReg(R15 (PC), 0x20000108)  returns 0x00 (0000ms, 1067ms total)
T0E38 003:505 JLINK_WriteReg(XPSR, 0x01000000)  returns 0x00 (0000ms, 1067ms total)
T0E38 003:505 JLINK_WriteReg(MSP, 0x20001000)  returns 0x00 (0000ms, 1067ms total)
T0E38 003:505 JLINK_WriteReg(PSP, 0x20001000)  returns 0x00 (0000ms, 1067ms total)
T0E38 003:505 JLINK_WriteReg(CFBP, 0x00000000)  returns 0x00 (0000ms, 1067ms total)
T0E38 003:505 JLINK_SetBPEx(Addr = 0x20000000, Type = 0xFFFFFFF2)  returns 0x0000000E (0000ms, 1067ms total)
T0E38 003:505 JLINK_Go() (0004ms, 1071ms total)
T0E38 003:509 JLINK_IsHalted()  returns FALSE (0000ms, 1071ms total)
T0E38 003:534 JLINK_IsHalted() -- CPU_ReadMem(2 bytes @ 0x20000000)  returns TRUE (0010ms, 1081ms total)
T0E38 003:544 JLINK_ReadReg(R15 (PC))  returns 0x20000000 (0000ms, 1071ms total)
T0E38 003:544 JLINK_ClrBPEx(BPHandle = 0x0000000E)  returns 0x00 (0000ms, 1071ms total)
T0E38 003:544 JLINK_ReadReg(R0)  returns 0x00000000 (0000ms, 1071ms total)
T0E38 003:544 JLINK_WriteMem(0x20000180, 0x0400 Bytes, ...) - Data: D0 ED 1E 0A 70 EE 60 0A 90 ED 1E 0A 9F ED CC 1A ... -- CPU_WriteMem(1024 bytes @ 0x20000180)  returns 0x400 (0032ms, 1103ms total)
T0E38 003:576 JLINK_WriteReg(R0, 0x08001C00)  returns 0x00 (0000ms, 1103ms total)
T0E38 003:576 JLINK_WriteReg(R1, 0x00000400)  returns 0x00 (0000ms, 1103ms total)
T0E38 003:576 JLINK_WriteReg(R2, 0x20000180)  returns 0x00 (0000ms, 1103ms total)
T0E38 003:576 JLINK_WriteReg(R3, 0x00000000)  returns 0x00 (0000ms, 1103ms total)
T0E38 003:576 JLINK_WriteReg(R4, 0x00000000)  returns 0x00 (0000ms, 1103ms total)
T0E38 003:576 JLINK_WriteReg(R5, 0x00000000)  returns 0x00 (0000ms, 1103ms total)
T0E38 003:576 JLINK_WriteReg(R6, 0x00000000)  returns 0x00 (0000ms, 1103ms total)
T0E38 003:576 JLINK_WriteReg(R7, 0x00000000)  returns 0x00 (0000ms, 1103ms total)
T0E38 003:577 JLINK_WriteReg(R8, 0x00000000)  returns 0x00 (0000ms, 1104ms total)
T0E38 003:577 JLINK_WriteReg(R9, 0x2000017C)  returns 0x00 (0000ms, 1104ms total)
T0E38 003:577 JLINK_WriteReg(R10, 0x00000000)  returns 0x00 (0000ms, 1104ms total)
T0E38 003:577 JLINK_WriteReg(R11, 0x00000000)  returns 0x00 (0000ms, 1104ms total)
T0E38 003:577 JLINK_WriteReg(R12, 0x00000000)  returns 0x00 (0000ms, 1104ms total)
T0E38 003:577 JLINK_WriteReg(R13 (SP), 0x20001000)  returns 0x00 (0000ms, 1104ms total)
T0E38 003:577 JLINK_WriteReg(R14, 0x20000001)  returns 0x00 (0000ms, 1104ms total)
T0E38 003:577 JLINK_WriteReg(R15 (PC), 0x20000108)  returns 0x00 (0000ms, 1104ms total)
T0E38 003:577 JLINK_WriteReg(XPSR, 0x01000000)  returns 0x00 (0000ms, 1104ms total)
T0E38 003:577 JLINK_WriteReg(MSP, 0x20001000)  returns 0x00 (0000ms, 1104ms total)
T0E38 003:577 JLINK_WriteReg(PSP, 0x20001000)  returns 0x00 (0000ms, 1104ms total)
T0E38 003:577 JLINK_WriteReg(CFBP, 0x00000000)  returns 0x00 (0000ms, 1104ms total)
T0E38 003:577 JLINK_SetBPEx(Addr = 0x20000000, Type = 0xFFFFFFF2)  returns 0x0000000F (0000ms, 1104ms total)
T0E38 003:577 JLINK_Go() (0004ms, 1108ms total)
T0E38 003:581 JLINK_IsHalted()  returns FALSE (0001ms, 1109ms total)
T0E38 003:729 JLINK_IsHalted() -- CPU_ReadMem(2 bytes @ 0x20000000)  returns TRUE (0008ms, 1116ms total)
T0E38 003:737 JLINK_ReadReg(R15 (PC))  returns 0x20000000 (0000ms, 1108ms total)
T0E38 003:737 JLINK_ClrBPEx(BPHandle = 0x0000000F)  returns 0x00 (0000ms, 1108ms total)
T0E38 003:737 JLINK_ReadReg(R0)  returns 0x00000000 (0000ms, 1108ms total)
T0E38 003:738 JLINK_WriteMem(0x20000180, 0x0400 Bytes, ...) - Data: DD FF 2A 2C 15 D0 06 DC 05 2C 0C D0 0A 2C 0C D0 ... -- CPU_WriteMem(1024 bytes @ 0x20000180)  returns 0x400 (0031ms, 1139ms total)
T0E38 003:769 JLINK_WriteReg(R0, 0x08002000)  returns 0x00 (0000ms, 1139ms total)
T0E38 003:769 JLINK_WriteReg(R1, 0x00000400)  returns 0x00 (0000ms, 1139ms total)
T0E38 003:769 JLINK_WriteReg(R2, 0x20000180)  returns 0x00 (0000ms, 1139ms total)
T0E38 003:769 JLINK_WriteReg(R3, 0x00000000)  returns 0x00 (0001ms, 1140ms total)
T0E38 003:770 JLINK_WriteReg(R4, 0x00000000)  returns 0x00 (0000ms, 1140ms total)
T0E38 003:770 JLINK_WriteReg(R5, 0x00000000)  returns 0x00 (0000ms, 1140ms total)
T0E38 003:770 JLINK_WriteReg(R6, 0x00000000)  returns 0x00 (0000ms, 1140ms total)
T0E38 003:770 JLINK_WriteReg(R7, 0x00000000)  returns 0x00 (0000ms, 1140ms total)
T0E38 003:770 JLINK_WriteReg(R8, 0x00000000)  returns 0x00 (0000ms, 1140ms total)
T0E38 003:770 JLINK_WriteReg(R9, 0x2000017C)  returns 0x00 (0000ms, 1140ms total)
T0E38 003:770 JLINK_WriteReg(R10, 0x00000000)  returns 0x00 (0000ms, 1140ms total)
T0E38 003:770 JLINK_WriteReg(R11, 0x00000000)  returns 0x00 (0000ms, 1140ms total)
T0E38 003:770 JLINK_WriteReg(R12, 0x00000000)  returns 0x00 (0000ms, 1140ms total)
T0E38 003:770 JLINK_WriteReg(R13 (SP), 0x20001000)  returns 0x00 (0000ms, 1140ms total)
T0E38 003:770 JLINK_WriteReg(R14, 0x20000001)  returns 0x00 (0000ms, 1140ms total)
T0E38 003:770 JLINK_WriteReg(R15 (PC), 0x20000108)  returns 0x00 (0000ms, 1140ms total)
T0E38 003:770 JLINK_WriteReg(XPSR, 0x01000000)  returns 0x00 (0000ms, 1140ms total)
